T4438 000:003.305   SEGGER J-Link V8.16 Log File
T4438 000:003.472   DLL Compiled: Feb 26 2025 12:07:26
T4438 000:003.480   Logging started @ 2025-09-03 07:49
T4438 000:003.486   Process: D:\keil\UV4\UV4.exe
T4438 000:003.498 - 3.492ms 
T4438 000:003.507 JLINK_SetWarnOutHandler(...)
T4438 000:003.513 - 0.007ms 
T4438 000:003.523 JLINK_OpenEx(...)
T4438 000:006.997   Firmware: J-Link ARM-OB STM32 compiled Aug 22 2012 19:52:04
T4438 000:007.529   Firmware: J-Link ARM-OB STM32 compiled Aug 22 2012 19:52:04
T4438 000:009.065   Hardware: V7.00
T4438 000:009.084   S/N: 20090928
T4438 000:009.094   OEM: SEGGER
T4438 000:009.104   Feature(s): JFlash, RDI, GDB, FlashDL, FlashBP
T4438 000:009.369   Bootloader: (FW returned invalid version)
T4438 000:010.084   TELNET listener socket opened on port 19021
T4438 000:010.166   WEBSRV WEBSRV_Init(): Starting webserver thread(s)
T4438 000:010.291   WEBSRV Webserver running on local port 19080
T4438 000:010.368   Looking for J-Link GUI Server exe at: D:\keil\ARM\Segger\JLinkGUIServer.exe
T4438 000:010.459   Looking for J-Link GUI Server exe at: C:\Program Files\SEGGER\JLink_V838\JLinkGUIServer.exe
T4438 000:010.492   Forking J-Link GUI Server: C:\Program Files\SEGGER\JLink_V838\JLinkGUIServer.exe
T4438 000:043.570   J-Link GUI Server info: "J-Link GUI server V8.38 "
T4438 000:043.983 - 40.453ms returns "O.K."
T4438 000:044.012 JLINK_GetEmuCaps()
T4438 000:044.022 - 0.008ms returns 0x88EA5833
T4438 000:044.036 JLINK_TIF_GetAvailable(...)
T4438 000:044.200 - 0.164ms 
T4438 000:044.221 JLINK_SetErrorOutHandler(...)
T4438 000:044.229 - 0.008ms 
T4438 000:044.255 JLINK_ExecCommand("ProjectFile = "D:\LKS\project\Senorless\LKS32MC074DO_test\JLinkSettings.ini"", ...). 
T4438 000:058.077   Device "CORTEX-M0" selected.
T4438 000:058.359 - 14.106ms returns 0x00
T4438 000:059.628 JLINK_ExecCommand("Device = LKS32MC074DOF8Q8", ...). 
T4438 000:060.899   Device "CORTEX-M0" selected.
T4438 000:061.137 - 1.488ms returns 0x00
T4438 000:061.151 JLINK_ExecCommand("DisableConnectionTimeout", ...). 
T4438 000:061.169   ERROR: Unknown command
T4438 000:061.179 - 0.019ms returns 0x01
T4438 000:061.188 JLINK_GetHardwareVersion()
T4438 000:061.195 - 0.007ms returns 70000
T4438 000:061.202 JLINK_GetDLLVersion()
T4438 000:061.209 - 0.006ms returns 81600
T4438 000:061.217 JLINK_GetOEMString(...)
T4438 000:061.225 JLINK_GetFirmwareString(...)
T4438 000:061.232 - 0.006ms 
T4438 000:064.581 JLINK_GetDLLVersion()
T4438 000:064.600 - 0.018ms returns 81600
T4438 000:064.608 JLINK_GetCompileDateTime()
T4438 000:064.615 - 0.006ms 
T4438 000:065.707 JLINK_GetFirmwareString(...)
T4438 000:065.723 - 0.016ms 
T4438 000:066.794 JLINK_GetHardwareVersion()
T4438 000:066.809 - 0.015ms returns 70000
T4438 000:067.887 JLINK_GetSN()
T4438 000:067.903 - 0.016ms returns 20090928
T4438 000:069.002 JLINK_GetOEMString(...)
T4438 000:071.227 JLINK_TIF_Select(JLINKARM_TIF_SWD)
T4438 000:071.790 - 0.564ms returns 0x00
T4438 000:071.802 JLINK_HasError()
T4438 000:071.816 JLINK_SetSpeed(5000)
T4438 000:071.886 - 0.071ms 
T4438 000:071.897 JLINK_GetId()
T4438 000:073.809   Found SW-DP with ID 0x0BB11477
T4438 000:076.876   Old FW that does not support reading DPIDR via DAP jobs
T4438 000:081.378   DPv0 detected
T4438 000:082.447   CoreSight SoC-400 or earlier
T4438 000:083.513   Scanning AP map to find all available APs
T4438 000:087.016   AP[1]: Stopped AP scan as end of AP map has been reached
T4438 000:088.144   AP[0]: AHB-AP (IDR: 0x04770021, ADDR: 0x00000000)
T4438 000:089.266   Iterating through AP map to find AHB-AP to use
T4438 000:093.878   AP[0]: Core found
T4438 000:095.011   AP[0]: AHB-AP ROM base: 0xE00FF000
T4438 000:098.054   CPUID register: 0x410CC200. Implementer code: 0x41 (ARM)
T4438 000:099.201   Found Cortex-M0 r0p0, Little endian.
T4438 000:099.481   -- Max. mem block: 0x00002C18
T4438 000:099.906   CPU_ReadMem(4 bytes @ 0xE000EDF0)
T4438 000:100.310   CPU_WriteMem(4 bytes @ 0xE000EDF0)
T4438 000:100.723   CPU_ReadMem(4 bytes @ 0xE0002000)
T4438 000:102.260   FPUnit: 2 code (BP) slots and 0 literal slots
T4438 000:102.332   CPU_ReadMem(4 bytes @ 0xE000EDFC)
T4438 000:102.881   CPU_WriteMem(4 bytes @ 0xE000EDFC)
T4438 000:103.289   CPU_ReadMem(4 bytes @ 0xE0001000)
T4438 000:103.675   CPU_WriteMem(4 bytes @ 0xE0001000)
T4438 000:105.203   CoreSight components:
T4438 000:106.322   ROMTbl[0] @ E00FF000
T4438 000:106.344   CPU_ReadMem(64 bytes @ 0xE00FF000)
T4438 000:107.347   CPU_ReadMem(32 bytes @ 0xE000EFE0)
T4438 000:109.203   [0][0]: E000E000 CID B105E00D PID 000BB008 SCS
T4438 000:109.226   CPU_ReadMem(32 bytes @ 0xE0001FE0)
T4438 000:110.995   [0][1]: E0001000 CID B105E00D PID 000BB00A DWT
T4438 000:111.017   CPU_ReadMem(32 bytes @ 0xE0002FE0)
T4438 000:112.773   [0][2]: E0002000 CID B105E00D PID 000BB00B FPB
T4438 000:113.228 - 41.331ms returns 0x0BB11477
T4438 000:113.247 JLINK_GetDLLVersion()
T4438 000:113.255 - 0.007ms returns 81600
T4438 000:113.318 JLINK_CORE_GetFound()
T4438 000:113.328 - 0.009ms returns 0x60000FF
T4438 000:113.336 JLINK_GetDebugInfo(0x100 = JLINKARM_ROM_TABLE_ADDR_INDEX)
T4438 000:113.345   Value=0xE00FF000
T4438 000:113.355 - 0.018ms returns 0
T4438 000:114.480 JLINK_GetDebugInfo(0x100 = JLINKARM_ROM_TABLE_ADDR_INDEX)
T4438 000:114.497   Value=0xE00FF000
T4438 000:114.508 - 0.027ms returns 0
T4438 000:114.516 JLINK_GetDebugInfo(0x101 = JLINKARM_DEBUG_INFO_ETM_ADDR_INDEX)
T4438 000:114.523   Value=0x00000000
T4438 000:114.532 - 0.016ms returns 0
T4438 000:114.541 JLINK_ReadMemEx(0xE0041FF0, 0x10 Bytes, Flags = 0x02000004)
T4438 000:114.574   CPU_ReadMem(16 bytes @ 0xE0041FF0)
T4438 000:115.195   Data:  00 00 00 00 00 00 00 00 00 00 00 00 00 00 00 00
T4438 000:115.209 - 0.667ms returns 16 (0x10)
T4438 000:115.218 JLINK_GetDebugInfo(0x102 = JLINKARM_DEBUG_INFO_MTB_ADDR_INDEX)
T4438 000:115.225   Value=0x00000000
T4438 000:115.235 - 0.017ms returns 0
T4438 000:115.243 JLINK_GetDebugInfo(0x103 = JLINKARM_DEBUG_INFO_TPIU_ADDR_INDEX)
T4438 000:115.250   Value=0x00000000
T4438 000:115.259 - 0.016ms returns 0
T4438 000:115.267 JLINK_GetDebugInfo(0x104 = JLINKARM_DEBUG_INFO_ITM_ADDR_INDEX)
T4438 000:115.274   Value=0xE0000000
T4438 000:115.284 - 0.016ms returns 0
T4438 000:115.296 JLINK_GetDebugInfo(0x105 = JLINKARM_DEBUG_INFO_DWT_ADDR_INDEX)
T4438 000:115.303   Value=0xE0001000
T4438 000:115.314 - 0.017ms returns 0
T4438 000:115.321 JLINK_GetDebugInfo(0x106 = JLINKARM_DEBUG_INFO_FPB_ADDR_INDEX)
T4438 000:115.328   Value=0xE0002000
T4438 000:115.338 - 0.016ms returns 0
T4438 000:115.346 JLINK_GetDebugInfo(0x107 = JLINKARM_DEBUG_INFO_NVIC_ADDR_INDEX)
T4438 000:115.352   Value=0xE000E000
T4438 000:115.362 - 0.016ms returns 0
T4438 000:115.369 JLINK_GetDebugInfo(0x10C = JLINKARM_DEBUG_INFO_DBG_ADDR_INDEX)
T4438 000:115.376   Value=0xE000EDF0
T4438 000:115.386 - 0.016ms returns 0
T4438 000:115.393 JLINK_GetDebugInfo(0x01 = Unknown)
T4438 000:115.400   Value=0x00000000
T4438 000:115.409 - 0.016ms returns 0
T4438 000:115.417 JLINK_ReadMemU32(0xE000ED00, 0x1 Items)
T4438 000:115.427   CPU_ReadMem(4 bytes @ 0xE000ED00)
T4438 000:115.879   Data:  00 C2 0C 41
T4438 000:115.899   Debug reg: CPUID
T4438 000:115.909 - 0.491ms returns 1 (0x1)
T4438 000:115.918 JLINK_GetDebugInfo(0x10F = JLINKARM_DEBUG_INFO_HAS_CORTEX_M_SECURITY_EXT_INDEX)
T4438 000:115.925   Value=0x00000000
T4438 000:115.935 - 0.016ms returns 0
T4438 000:115.943 JLINK_HasError()
T4438 000:115.951 JLINK_SetResetType(JLINKARM_CM3_RESET_TYPE_NORMAL)
T4438 000:115.958 - 0.007ms returns JLINKARM_CM3_RESET_TYPE_NORMAL
T4438 000:115.966 JLINK_Reset()
T4438 000:115.977   JLINK_GetResetTypeDesc
T4438 000:115.984   - 0.007ms 
T4438 000:117.184   Reset type: NORMAL (https://wiki.segger.com/J-Link_Reset_Strategies)
T4438 000:117.217   CPU is running
T4438 000:117.229   CPU_WriteMem(4 bytes @ 0xE000EDF0)
T4438 000:117.699   CPU is running
T4438 000:117.719   CPU_WriteMem(4 bytes @ 0xE000EDFC)
T4438 000:119.316   Reset: Halt core after reset via DEMCR.VC_CORERESET.
T4438 000:120.796   Reset: Reset device via AIRCR.SYSRESETREQ.
T4438 000:120.818   CPU is running
T4438 000:120.836   CPU_WriteMem(4 bytes @ 0xE000ED0C)
T4438 000:173.927   CPU_ReadMem(4 bytes @ 0xE000EDF0)
T4438 000:174.378   CPU_ReadMem(4 bytes @ 0xE000EDF0)
T4438 000:177.950   CPU_WriteMem(4 bytes @ 0xE000EDFC)
T4438 000:184.072   CPU_ReadMem(4 bytes @ 0xE000EDF0)
T4438 000:187.779   CPU_WriteMem(4 bytes @ 0xE0002000)
T4438 000:188.260   CPU_ReadMem(4 bytes @ 0xE000EDFC)
T4438 000:188.713   CPU_ReadMem(4 bytes @ 0xE0001000)
T4438 000:189.204   CPU_WriteMem(4 bytes @ 0xE0001000)
T4438 000:189.797 - 73.828ms 
T4438 000:189.821 JLINK_Halt()
T4438 000:189.828 - 0.007ms returns 0x00
T4438 000:189.848 JLINK_ReadMemU32(0xE000EDF0, 0x1 Items)
T4438 000:189.859   CPU_ReadMem(4 bytes @ 0xE000EDF0)
T4438 000:190.382   Data:  03 00 03 00
T4438 000:190.403   Debug reg: DHCSR
T4438 000:190.412 - 0.564ms returns 1 (0x1)
T4438 000:190.423 JLINK_WriteU32(0xE000EDF0, 0xA05F0003)
T4438 000:190.430   Debug reg: DHCSR
T4438 000:190.683   CPU_WriteMem(4 bytes @ 0xE000EDF0)
T4438 000:191.156 - 0.731ms returns 0 (0x00000000)
T4438 000:191.210 JLINK_WriteU32(0xE000EDFC, 0x01000000)
T4438 000:191.217   Debug reg: DEMCR
T4438 000:191.241   CPU_WriteMem(4 bytes @ 0xE000EDFC)
T4438 000:191.729 - 0.518ms returns 0 (0x00000000)
T4438 000:196.136 JLINK_GetHWStatus(...)
T4438 000:196.311 - 0.174ms returns 0
T4438 000:199.324 JLINK_GetNumBPUnits(Type = 0xFFFFFF00)
T4438 000:199.342 - 0.018ms returns 0x02
T4438 000:199.350 JLINK_GetNumBPUnits(Type = 0xF0)
T4438 000:199.357 - 0.006ms returns 0x2000
T4438 000:199.364 JLINK_GetNumWPUnits()
T4438 000:199.370 - 0.006ms returns 2
T4438 000:202.324 JLINK_GetSpeed()
T4438 000:202.341 - 0.017ms returns 4000
T4438 000:204.332 JLINK_ReadMemU32(0xE000E004, 0x1 Items)
T4438 000:204.352   CPU_ReadMem(4 bytes @ 0xE000E004)
T4438 000:204.731   Data:  00 00 00 00
T4438 000:204.748 - 0.416ms returns 1 (0x1)
T4438 000:204.759 JLINK_Halt()
T4438 000:204.765 - 0.006ms returns 0x00
T4438 000:204.773 JLINK_IsHalted()
T4438 000:204.779 - 0.006ms returns TRUE
T4438 000:206.176 JLINK_WriteMem(0x20000000, 0x19C Bytes, ...)
T4438 000:206.188   Data:  00 BE 0A E0 0D 78 2D 06 68 40 08 24 40 00 00 D3 ...
T4438 000:206.409   CPU_WriteMem(412 bytes @ 0x20000000)
T4438 000:211.780 - 5.604ms returns 0x19C
T4438 000:211.824 JLINK_HasError()
T4438 000:211.833 JLINK_WriteReg(R0, 0x00000000)
T4438 000:211.841 - 0.008ms returns 0
T4438 000:211.849 JLINK_WriteReg(R1, 0x00B71B00)
T4438 000:211.855 - 0.006ms returns 0
T4438 000:211.862 JLINK_WriteReg(R2, 0x00000001)
T4438 000:211.869 - 0.006ms returns 0
T4438 000:211.876 JLINK_WriteReg(R3, 0x00000000)
T4438 000:211.882 - 0.006ms returns 0
T4438 000:211.889 JLINK_WriteReg(R4, 0x00000000)
T4438 000:211.895 - 0.006ms returns 0
T4438 000:211.902 JLINK_WriteReg(R5, 0x00000000)
T4438 000:211.909 - 0.006ms returns 0
T4438 000:211.916 JLINK_WriteReg(R6, 0x00000000)
T4438 000:211.922 - 0.006ms returns 0
T4438 000:211.929 JLINK_WriteReg(R7, 0x00000000)
T4438 000:211.935 - 0.006ms returns 0
T4438 000:211.951 JLINK_WriteReg(R8, 0x00000000)
T4438 000:211.957 - 0.014ms returns 0
T4438 000:211.964 JLINK_WriteReg(R9, 0x20000198)
T4438 000:211.970 - 0.006ms returns 0
T4438 000:211.977 JLINK_WriteReg(R10, 0x00000000)
T4438 000:211.984 - 0.006ms returns 0
T4438 000:211.990 JLINK_WriteReg(R11, 0x00000000)
T4438 000:211.997 - 0.006ms returns 0
T4438 000:212.004 JLINK_WriteReg(R12, 0x00000000)
T4438 000:212.010 - 0.006ms returns 0
T4438 000:212.017 JLINK_WriteReg(R13 (SP), 0x20001000)
T4438 000:212.024 - 0.006ms returns 0
T4438 000:212.031 JLINK_WriteReg(R14, 0x20000001)
T4438 000:212.037 - 0.006ms returns 0
T4438 000:212.047 JLINK_WriteReg(R15 (PC), 0x20000040)
T4438 000:212.053 - 0.009ms returns 0
T4438 000:212.061 JLINK_WriteReg(XPSR, 0x01000000)
T4438 000:212.067 - 0.006ms returns 0
T4438 000:212.074 JLINK_WriteReg(MSP, 0x20001000)
T4438 000:212.080 - 0.006ms returns 0
T4438 000:212.087 JLINK_WriteReg(PSP, 0x20001000)
T4438 000:212.093 - 0.006ms returns 0
T4438 000:212.100 JLINK_WriteReg(CFBP, 0x00000000)
T4438 000:212.110 - 0.010ms returns 0
T4438 000:212.119 JLINK_SetBPEx(Addr = 0x20000000, Type = 0xFFFFFFF2)
T4438 000:212.128   CPU_ReadMem(4 bytes @ 0x20000000)
T4438 000:212.576   CPU_WriteMem(4 bytes @ 0x20000000)
T4438 000:213.100   CPU_ReadMem(4 bytes @ 0x20000000)
T4438 000:213.577   CPU_WriteMem(4 bytes @ 0x20000000)
T4438 000:214.101   CPU_ReadMem(2 bytes @ 0x20000000)
T4438 000:214.631 - 2.510ms returns 0x00000001
T4438 000:214.666 JLINK_Go()
T4438 000:214.678   CPU_WriteMem(2 bytes @ 0x20000000)
T4438 000:215.157   CPU_ReadMem(4 bytes @ 0xE0001000)
T4438 000:215.539   CPU_WriteMem(4 bytes @ 0xE0001000)
T4438 000:216.022   CPU_WriteMem(4 bytes @ 0xE0002008)
T4438 000:216.079   CPU_WriteMem(4 bytes @ 0xE000200C)
T4438 000:216.951   CPU_WriteMem(4 bytes @ 0xE0001004)
T4438 000:221.473   Memory map 'after startup completion point' is active
T4438 000:221.495 - 6.829ms 
T4438 000:221.509 JLINK_IsHalted()
T4438 000:224.621   CPU_ReadMem(2 bytes @ 0x20000000)
T4438 000:225.031 - 3.521ms returns TRUE
T4438 000:225.072 JLINK_ReadReg(R15 (PC))
T4438 000:225.080 - 0.008ms returns 0x20000000
T4438 000:225.090 JLINK_ClrBPEx(BPHandle = 0x00000001)
T4438 000:225.097 - 0.007ms returns 0x00
T4438 000:225.107 JLINK_ReadReg(R0)
T4438 000:225.114 - 0.007ms returns 0x00000000
T4438 000:225.270 JLINK_HasError()
T4438 000:225.281 JLINK_WriteReg(R0, 0x00000000)
T4438 000:225.288 - 0.007ms returns 0
T4438 000:225.295 JLINK_WriteReg(R1, 0x00B71B00)
T4438 000:225.302 - 0.006ms returns 0
T4438 000:225.309 JLINK_WriteReg(R2, 0x00000001)
T4438 000:225.315 - 0.006ms returns 0
T4438 000:225.322 JLINK_WriteReg(R3, 0x00000000)
T4438 000:225.328 - 0.006ms returns 0
T4438 000:225.335 JLINK_WriteReg(R4, 0x00000000)
T4438 000:225.341 - 0.006ms returns 0
T4438 000:225.349 JLINK_WriteReg(R5, 0x00000000)
T4438 000:225.355 - 0.006ms returns 0
T4438 000:225.362 JLINK_WriteReg(R6, 0x00000000)
T4438 000:225.368 - 0.006ms returns 0
T4438 000:225.375 JLINK_WriteReg(R7, 0x00000000)
T4438 000:225.381 - 0.006ms returns 0
T4438 000:225.388 JLINK_WriteReg(R8, 0x00000000)
T4438 000:225.394 - 0.006ms returns 0
T4438 000:225.401 JLINK_WriteReg(R9, 0x20000198)
T4438 000:225.407 - 0.006ms returns 0
T4438 000:225.414 JLINK_WriteReg(R10, 0x00000000)
T4438 000:225.421 - 0.006ms returns 0
T4438 000:225.428 JLINK_WriteReg(R11, 0x00000000)
T4438 000:225.434 - 0.006ms returns 0
T4438 000:225.441 JLINK_WriteReg(R12, 0x00000000)
T4438 000:225.447 - 0.006ms returns 0
T4438 000:225.454 JLINK_WriteReg(R13 (SP), 0x20001000)
T4438 000:225.461 - 0.006ms returns 0
T4438 000:225.468 JLINK_WriteReg(R14, 0x20000001)
T4438 000:225.474 - 0.006ms returns 0
T4438 000:225.481 JLINK_WriteReg(R15 (PC), 0x2000005A)
T4438 000:225.487 - 0.006ms returns 0
T4438 000:225.494 JLINK_WriteReg(XPSR, 0x01000000)
T4438 000:225.500 - 0.006ms returns 0
T4438 000:225.507 JLINK_WriteReg(MSP, 0x20001000)
T4438 000:225.514 - 0.006ms returns 0
T4438 000:225.521 JLINK_WriteReg(PSP, 0x20001000)
T4438 000:225.527 - 0.006ms returns 0
T4438 000:225.534 JLINK_WriteReg(CFBP, 0x00000000)
T4438 000:225.540 - 0.006ms returns 0
T4438 000:225.547 JLINK_SetBPEx(Addr = 0x20000000, Type = 0xFFFFFFF2)
T4438 000:225.554 - 0.007ms returns 0x00000002
T4438 000:225.561 JLINK_Go()
T4438 000:225.570   CPU_ReadMem(4 bytes @ 0xE0001000)
T4438 000:229.080 - 3.518ms 
T4438 000:229.099 JLINK_IsHalted()
T4438 000:262.922 - 33.819ms returns FALSE
T4438 000:263.057 JLINK_HasError()
T4438 000:277.132 JLINK_IsHalted()
T4438 000:280.438   CPU_ReadMem(2 bytes @ 0x20000000)
T4438 000:280.952 - 3.822ms returns TRUE
T4438 000:280.964 JLINK_ReadReg(R15 (PC))
T4438 000:280.971 - 0.007ms returns 0x20000000
T4438 000:280.979 JLINK_ClrBPEx(BPHandle = 0x00000002)
T4438 000:280.986 - 0.006ms returns 0x00
T4438 000:280.993 JLINK_ReadReg(R0)
T4438 000:281.000 - 0.006ms returns 0x00000000
T4438 000:334.933 JLINK_HasError()
T4438 000:335.088 JLINK_WriteReg(R0, 0x00000001)
T4438 000:335.139 - 0.050ms returns 0
T4438 000:335.184 JLINK_WriteReg(R1, 0x00B71B00)
T4438 000:335.224 - 0.038ms returns 0
T4438 000:335.453 JLINK_WriteReg(R2, 0x00000001)
T4438 000:335.491 - 0.038ms returns 0
T4438 000:335.535 JLINK_WriteReg(R3, 0x00000000)
T4438 000:335.573 - 0.037ms returns 0
T4438 000:335.615 JLINK_WriteReg(R4, 0x00000000)
T4438 000:335.653 - 0.037ms returns 0
T4438 000:335.695 JLINK_WriteReg(R5, 0x00000000)
T4438 000:335.755 - 0.059ms returns 0
T4438 000:335.797 JLINK_WriteReg(R6, 0x00000000)
T4438 000:335.830 - 0.032ms returns 0
T4438 000:335.867 JLINK_WriteReg(R7, 0x00000000)
T4438 000:335.899 - 0.032ms returns 0
T4438 000:335.937 JLINK_WriteReg(R8, 0x00000000)
T4438 000:335.969 - 0.032ms returns 0
T4438 000:336.007 JLINK_WriteReg(R9, 0x20000198)
T4438 000:336.039 - 0.032ms returns 0
T4438 000:336.077 JLINK_WriteReg(R10, 0x00000000)
T4438 000:336.110 - 0.032ms returns 0
T4438 000:336.147 JLINK_WriteReg(R11, 0x00000000)
T4438 000:336.180 - 0.033ms returns 0
T4438 000:336.218 JLINK_WriteReg(R12, 0x00000000)
T4438 000:336.250 - 0.032ms returns 0
T4438 000:336.287 JLINK_WriteReg(R13 (SP), 0x20001000)
T4438 000:336.323 - 0.035ms returns 0
T4438 000:336.360 JLINK_WriteReg(R14, 0x20000001)
T4438 000:336.393 - 0.032ms returns 0
T4438 000:336.431 JLINK_WriteReg(R15 (PC), 0x20000056)
T4438 000:336.465 - 0.033ms returns 0
T4438 000:336.503 JLINK_WriteReg(XPSR, 0x01000000)
T4438 000:336.535 - 0.032ms returns 0
T4438 000:336.573 JLINK_WriteReg(MSP, 0x20001000)
T4438 000:336.605 - 0.032ms returns 0
T4438 000:336.642 JLINK_WriteReg(PSP, 0x20001000)
T4438 000:336.675 - 0.032ms returns 0
T4438 000:336.720 JLINK_WriteReg(CFBP, 0x00000000)
T4438 000:336.751 - 0.031ms returns 0
T4438 000:336.787 JLINK_SetBPEx(Addr = 0x20000000, Type = 0xFFFFFFF2)
T4438 000:336.821 - 0.035ms returns 0x00000003
T4438 000:336.855 JLINK_Go()
T4438 000:336.907   CPU_ReadMem(4 bytes @ 0xE0001000)
T4438 000:341.321 - 4.464ms 
T4438 000:341.443 JLINK_IsHalted()
T4438 000:345.126   CPU_ReadMem(2 bytes @ 0x20000000)
T4438 000:345.801 - 4.357ms returns TRUE
T4438 000:345.870 JLINK_ReadReg(R15 (PC))
T4438 000:345.905 - 0.035ms returns 0x20000000
T4438 000:345.941 JLINK_ClrBPEx(BPHandle = 0x00000003)
T4438 000:345.981 - 0.040ms returns 0x00
T4438 000:346.039 JLINK_ReadReg(R0)
T4438 000:346.082 - 0.043ms returns 0x00000000
T4438 000:354.218 JLINK_WriteMem(0x20000000, 0x19C Bytes, ...)
T4438 000:354.232   Data:  00 BE 0A E0 0D 78 2D 06 68 40 08 24 40 00 00 D3 ...
T4438 000:354.248   CPU_WriteMem(412 bytes @ 0x20000000)
T4438 000:359.546 - 5.327ms returns 0x19C
T4438 000:359.665 JLINK_HasError()
T4438 000:359.688 JLINK_WriteReg(R0, 0x00000000)
T4438 000:359.708 - 0.021ms returns 0
T4438 000:359.727 JLINK_WriteReg(R1, 0x00B71B00)
T4438 000:359.743 - 0.016ms returns 0
T4438 000:359.761 JLINK_WriteReg(R2, 0x00000002)
T4438 000:359.776 - 0.015ms returns 0
T4438 000:359.794 JLINK_WriteReg(R3, 0x00000000)
T4438 000:359.810 - 0.016ms returns 0
T4438 000:359.826 JLINK_WriteReg(R4, 0x00000000)
T4438 000:359.839 - 0.013ms returns 0
T4438 000:359.855 JLINK_WriteReg(R5, 0x00000000)
T4438 000:359.869 - 0.013ms returns 0
T4438 000:359.884 JLINK_WriteReg(R6, 0x00000000)
T4438 000:359.898 - 0.013ms returns 0
T4438 000:359.914 JLINK_WriteReg(R7, 0x00000000)
T4438 000:359.927 - 0.013ms returns 0
T4438 000:359.943 JLINK_WriteReg(R8, 0x00000000)
T4438 000:359.957 - 0.014ms returns 0
T4438 000:359.973 JLINK_WriteReg(R9, 0x20000198)
T4438 000:359.986 - 0.013ms returns 0
T4438 000:360.002 JLINK_WriteReg(R10, 0x00000000)
T4438 000:360.016 - 0.013ms returns 0
T4438 000:360.031 JLINK_WriteReg(R11, 0x00000000)
T4438 000:360.045 - 0.013ms returns 0
T4438 000:360.063 JLINK_WriteReg(R12, 0x00000000)
T4438 000:360.078 - 0.014ms returns 0
T4438 000:360.094 JLINK_WriteReg(R13 (SP), 0x20001000)
T4438 000:360.108 - 0.014ms returns 0
T4438 000:360.124 JLINK_WriteReg(R14, 0x20000001)
T4438 000:360.142 - 0.018ms returns 0
T4438 000:360.158 JLINK_WriteReg(R15 (PC), 0x20000040)
T4438 000:360.181 - 0.022ms returns 0
T4438 000:360.207 JLINK_WriteReg(XPSR, 0x01000000)
T4438 000:360.231 - 0.023ms returns 0
T4438 000:360.267 JLINK_WriteReg(MSP, 0x20001000)
T4438 000:360.296 - 0.028ms returns 0
T4438 000:360.321 JLINK_WriteReg(PSP, 0x20001000)
T4438 000:360.346 - 0.025ms returns 0
T4438 000:360.371 JLINK_WriteReg(CFBP, 0x00000000)
T4438 000:360.388 - 0.017ms returns 0
T4438 000:360.409 JLINK_SetBPEx(Addr = 0x20000000, Type = 0xFFFFFFF2)
T4438 000:360.434   CPU_ReadMem(4 bytes @ 0x20000000)
T4438 000:361.123   CPU_WriteMem(4 bytes @ 0x20000000)
T4438 000:361.687   CPU_ReadMem(4 bytes @ 0x20000000)
T4438 000:362.218   CPU_WriteMem(4 bytes @ 0x20000000)
T4438 000:362.717   CPU_ReadMem(2 bytes @ 0x20000000)
T4438 000:363.222 - 2.812ms returns 0x00000004
T4438 000:363.247 JLINK_Go()
T4438 000:363.264   CPU_WriteMem(2 bytes @ 0x20000000)
T4438 000:363.715   CPU_ReadMem(4 bytes @ 0xE0001000)
T4438 000:367.150 - 3.903ms 
T4438 000:367.172 JLINK_IsHalted()
T4438 000:370.319   CPU_ReadMem(2 bytes @ 0x20000000)
T4438 000:370.900 - 3.727ms returns TRUE
T4438 000:370.956 JLINK_ReadReg(R15 (PC))
T4438 000:370.971 - 0.015ms returns 0x20000000
T4438 000:370.987 JLINK_ClrBPEx(BPHandle = 0x00000004)
T4438 000:371.001 - 0.014ms returns 0x00
T4438 000:371.016 JLINK_ReadReg(R0)
T4438 000:371.030 - 0.013ms returns 0x00000000
T4438 000:371.500 JLINK_WriteMem(0x2000019C, 0x200 Bytes, ...)
T4438 000:371.530   Data:  90 11 00 20 B9 01 00 00 C7 01 00 00 C9 01 00 00 ...
T4438 000:371.562   CPU_WriteMem(512 bytes @ 0x2000019C)
T4438 000:377.978 - 6.477ms returns 0x200
T4438 000:378.017 JLINK_HasError()
T4438 000:378.033 JLINK_WriteReg(R0, 0x00000000)
T4438 000:378.049 - 0.015ms returns 0
T4438 000:378.062 JLINK_WriteReg(R1, 0x00000200)
T4438 000:378.076 - 0.013ms returns 0
T4438 000:378.088 JLINK_WriteReg(R2, 0x2000019C)
T4438 000:378.100 - 0.011ms returns 0
T4438 000:378.113 JLINK_WriteReg(R3, 0x00000000)
T4438 000:378.124 - 0.011ms returns 0
T4438 000:378.137 JLINK_WriteReg(R4, 0x00000000)
T4438 000:378.148 - 0.011ms returns 0
T4438 000:378.161 JLINK_WriteReg(R5, 0x00000000)
T4438 000:378.172 - 0.011ms returns 0
T4438 000:378.185 JLINK_WriteReg(R6, 0x00000000)
T4438 000:378.196 - 0.011ms returns 0
T4438 000:378.209 JLINK_WriteReg(R7, 0x00000000)
T4438 000:378.220 - 0.011ms returns 0
T4438 000:378.233 JLINK_WriteReg(R8, 0x00000000)
T4438 000:378.244 - 0.011ms returns 0
T4438 000:378.260 JLINK_WriteReg(R9, 0x20000198)
T4438 000:378.271 - 0.011ms returns 0
T4438 000:378.287 JLINK_WriteReg(R10, 0x00000000)
T4438 000:378.303 - 0.016ms returns 0
T4438 000:378.321 JLINK_WriteReg(R11, 0x00000000)
T4438 000:378.337 - 0.016ms returns 0
T4438 000:378.353 JLINK_WriteReg(R12, 0x00000000)
T4438 000:378.367 - 0.014ms returns 0
T4438 000:378.387 JLINK_WriteReg(R13 (SP), 0x20001000)
T4438 000:378.404 - 0.016ms returns 0
T4438 000:378.420 JLINK_WriteReg(R14, 0x20000001)
T4438 000:378.434 - 0.014ms returns 0
T4438 000:378.450 JLINK_WriteReg(R15 (PC), 0x200000FE)
T4438 000:378.465 - 0.014ms returns 0
T4438 000:378.481 JLINK_WriteReg(XPSR, 0x01000000)
T4438 000:378.495 - 0.014ms returns 0
T4438 000:378.511 JLINK_WriteReg(MSP, 0x20001000)
T4438 000:378.526 - 0.015ms returns 0
T4438 000:378.540 JLINK_WriteReg(PSP, 0x20001000)
T4438 000:378.551 - 0.010ms returns 0
T4438 000:378.563 JLINK_WriteReg(CFBP, 0x00000000)
T4438 000:378.574 - 0.011ms returns 0
T4438 000:378.588 JLINK_SetBPEx(Addr = 0x20000000, Type = 0xFFFFFFF2)
T4438 000:378.600 - 0.012ms returns 0x00000005
T4438 000:378.613 JLINK_Go()
T4438 000:378.629   CPU_ReadMem(4 bytes @ 0xE0001000)
T4438 000:382.001 - 3.388ms 
T4438 000:382.013 JLINK_IsHalted()
T4438 000:382.490 - 0.477ms returns FALSE
T4438 000:382.501 JLINK_HasError()
T4438 000:387.447 JLINK_IsHalted()
T4438 000:388.162 - 0.716ms returns FALSE
T4438 000:388.178 JLINK_HasError()
T4438 000:390.163 JLINK_IsHalted()
T4438 000:390.672 - 0.507ms returns FALSE
T4438 000:390.707 JLINK_HasError()
T4438 000:392.153 JLINK_IsHalted()
T4438 000:392.735 - 0.577ms returns FALSE
T4438 000:392.870 JLINK_HasError()
T4438 000:394.156 JLINK_IsHalted()
T4438 000:394.686 - 0.529ms returns FALSE
T4438 000:394.707 JLINK_HasError()
T4438 000:396.150 JLINK_IsHalted()
T4438 000:396.707 - 0.556ms returns FALSE
T4438 000:396.726 JLINK_HasError()
T4438 000:398.139 JLINK_IsHalted()
T4438 000:398.721 - 0.582ms returns FALSE
T4438 000:398.733 JLINK_HasError()
T4438 000:400.142 JLINK_IsHalted()
T4438 000:400.508 - 0.366ms returns FALSE
T4438 000:400.520 JLINK_HasError()
T4438 000:402.143 JLINK_IsHalted()
T4438 000:402.552 - 0.409ms returns FALSE
T4438 000:402.565 JLINK_HasError()
T4438 000:404.144 JLINK_IsHalted()
T4438 000:404.587 - 0.443ms returns FALSE
T4438 000:404.604 JLINK_HasError()
T4438 000:406.143 JLINK_IsHalted()
T4438 000:406.599 - 0.455ms returns FALSE
T4438 000:406.613 JLINK_HasError()
T4438 000:408.200 JLINK_IsHalted()
T4438 000:408.906 - 0.705ms returns FALSE
T4438 000:408.927 JLINK_HasError()
T4438 000:410.182 JLINK_IsHalted()
T4438 000:410.659 - 0.477ms returns FALSE
T4438 000:410.671 JLINK_HasError()
T4438 000:412.169 JLINK_IsHalted()
T4438 000:412.757 - 0.588ms returns FALSE
T4438 000:412.812 JLINK_HasError()
T4438 000:414.152 JLINK_IsHalted()
T4438 000:417.155   CPU_ReadMem(2 bytes @ 0x20000000)
T4438 000:417.565 - 3.412ms returns TRUE
T4438 000:417.578 JLINK_ReadReg(R15 (PC))
T4438 000:417.587 - 0.009ms returns 0x20000000
T4438 000:417.596 JLINK_ClrBPEx(BPHandle = 0x00000005)
T4438 000:417.603 - 0.007ms returns 0x00
T4438 000:417.612 JLINK_ReadReg(R0)
T4438 000:417.619 - 0.007ms returns 0x00000000
T4438 000:417.998 JLINK_WriteMem(0x2000019C, 0x200 Bytes, ...)
T4438 000:418.012   Data:  09 1F 04 29 FB D2 8B 07 01 D5 02 80 80 1C C9 07 ...
T4438 000:418.028   CPU_WriteMem(512 bytes @ 0x2000019C)
T4438 000:424.392 - 6.393ms returns 0x200
T4438 000:424.417 JLINK_HasError()
T4438 000:424.433 JLINK_WriteReg(R0, 0x00000200)
T4438 000:424.445 - 0.012ms returns 0
T4438 000:424.459 JLINK_WriteReg(R1, 0x00000200)
T4438 000:424.469 - 0.010ms returns 0
T4438 000:424.482 JLINK_WriteReg(R2, 0x2000019C)
T4438 000:424.492 - 0.010ms returns 0
T4438 000:424.506 JLINK_WriteReg(R3, 0x00000000)
T4438 000:424.516 - 0.010ms returns 0
T4438 000:424.529 JLINK_WriteReg(R4, 0x00000000)
T4438 000:424.539 - 0.010ms returns 0
T4438 000:424.552 JLINK_WriteReg(R5, 0x00000000)
T4438 000:424.562 - 0.010ms returns 0
T4438 000:424.576 JLINK_WriteReg(R6, 0x00000000)
T4438 000:424.586 - 0.009ms returns 0
T4438 000:424.599 JLINK_WriteReg(R7, 0x00000000)
T4438 000:424.609 - 0.009ms returns 0
T4438 000:424.622 JLINK_WriteReg(R8, 0x00000000)
T4438 000:424.632 - 0.010ms returns 0
T4438 000:424.646 JLINK_WriteReg(R9, 0x20000198)
T4438 000:424.656 - 0.010ms returns 0
T4438 000:424.669 JLINK_WriteReg(R10, 0x00000000)
T4438 000:424.679 - 0.010ms returns 0
T4438 000:424.693 JLINK_WriteReg(R11, 0x00000000)
T4438 000:424.703 - 0.010ms returns 0
T4438 000:424.716 JLINK_WriteReg(R12, 0x00000000)
T4438 000:424.726 - 0.010ms returns 0
T4438 000:424.739 JLINK_WriteReg(R13 (SP), 0x20001000)
T4438 000:424.750 - 0.010ms returns 0
T4438 000:424.763 JLINK_WriteReg(R14, 0x20000001)
T4438 000:424.773 - 0.010ms returns 0
T4438 000:424.787 JLINK_WriteReg(R15 (PC), 0x200000FE)
T4438 000:424.797 - 0.010ms returns 0
T4438 000:424.811 JLINK_WriteReg(XPSR, 0x01000000)
T4438 000:424.820 - 0.010ms returns 0
T4438 000:424.834 JLINK_WriteReg(MSP, 0x20001000)
T4438 000:424.844 - 0.010ms returns 0
T4438 000:424.857 JLINK_WriteReg(PSP, 0x20001000)
T4438 000:424.867 - 0.010ms returns 0
T4438 000:424.881 JLINK_WriteReg(CFBP, 0x00000000)
T4438 000:424.891 - 0.010ms returns 0
T4438 000:424.905 JLINK_SetBPEx(Addr = 0x20000000, Type = 0xFFFFFFF2)
T4438 000:424.915 - 0.011ms returns 0x00000006
T4438 000:424.929 JLINK_Go()
T4438 000:424.944   CPU_ReadMem(4 bytes @ 0xE0001000)
T4438 000:428.335 - 3.405ms 
T4438 000:428.363 JLINK_IsHalted()
T4438 000:428.920 - 0.556ms returns FALSE
T4438 000:428.955 JLINK_HasError()
T4438 000:430.082 JLINK_IsHalted()
T4438 000:430.641 - 0.559ms returns FALSE
T4438 000:430.672 JLINK_HasError()
T4438 000:432.079 JLINK_IsHalted()
T4438 000:432.670 - 0.591ms returns FALSE
T4438 000:432.707 JLINK_HasError()
T4438 000:434.080 JLINK_IsHalted()
T4438 000:434.715 - 0.634ms returns FALSE
T4438 000:434.742 JLINK_HasError()
T4438 000:436.078 JLINK_IsHalted()
T4438 000:436.742 - 0.664ms returns FALSE
T4438 000:436.772 JLINK_HasError()
T4438 000:438.079 JLINK_IsHalted()
T4438 000:438.770 - 0.691ms returns FALSE
T4438 000:438.804 JLINK_HasError()
T4438 000:440.078 JLINK_IsHalted()
T4438 000:440.798 - 0.719ms returns FALSE
T4438 000:440.834 JLINK_HasError()
T4438 000:442.095 JLINK_IsHalted()
T4438 000:442.815 - 0.717ms returns FALSE
T4438 000:442.891 JLINK_HasError()
T4438 000:444.502 JLINK_IsHalted()
T4438 000:445.125 - 0.622ms returns FALSE
T4438 000:445.161 JLINK_HasError()
T4438 000:446.494 JLINK_IsHalted()
T4438 000:447.146 - 0.651ms returns FALSE
T4438 000:447.182 JLINK_HasError()
T4438 000:448.529 JLINK_IsHalted()
T4438 000:449.171 - 0.641ms returns FALSE
T4438 000:449.210 JLINK_HasError()
T4438 000:450.510 JLINK_IsHalted()
T4438 000:451.195 - 0.684ms returns FALSE
T4438 000:451.234 JLINK_HasError()
T4438 000:452.504 JLINK_IsHalted()
T4438 000:453.246 - 0.741ms returns FALSE
T4438 000:453.289 JLINK_HasError()
T4438 000:454.780 JLINK_IsHalted()
T4438 000:455.531 - 0.750ms returns FALSE
T4438 000:455.583 JLINK_HasError()
T4438 000:459.501 JLINK_IsHalted()
T4438 000:460.082 - 0.581ms returns FALSE
T4438 000:460.113 JLINK_HasError()
T4438 000:461.505 JLINK_IsHalted()
T4438 000:464.882   CPU_ReadMem(2 bytes @ 0x20000000)
T4438 000:465.534 - 4.028ms returns TRUE
T4438 000:465.571 JLINK_ReadReg(R15 (PC))
T4438 000:465.598 - 0.026ms returns 0x20000000
T4438 000:465.624 JLINK_ClrBPEx(BPHandle = 0x00000006)
T4438 000:465.647 - 0.023ms returns 0x00
T4438 000:465.673 JLINK_ReadReg(R0)
T4438 000:465.696 - 0.022ms returns 0x00000000
T4438 000:466.638 JLINK_WriteMem(0x2000019C, 0x200 Bytes, ...)
T4438 000:466.682   Data:  00 18 76 41 5B 1C 9A 40 00 D3 40 1C 4B 05 F3 18 ...
T4438 000:466.721   CPU_WriteMem(512 bytes @ 0x2000019C)
T4438 000:473.318 - 6.679ms returns 0x200
T4438 000:473.374 JLINK_HasError()
T4438 000:473.411 JLINK_WriteReg(R0, 0x00000400)
T4438 000:473.445 - 0.034ms returns 0
T4438 000:473.479 JLINK_WriteReg(R1, 0x00000200)
T4438 000:473.508 - 0.028ms returns 0
T4438 000:473.541 JLINK_WriteReg(R2, 0x2000019C)
T4438 000:473.569 - 0.028ms returns 0
T4438 000:473.602 JLINK_WriteReg(R3, 0x00000000)
T4438 000:473.631 - 0.029ms returns 0
T4438 000:473.664 JLINK_WriteReg(R4, 0x00000000)
T4438 000:473.693 - 0.028ms returns 0
T4438 000:473.725 JLINK_WriteReg(R5, 0x00000000)
T4438 000:473.754 - 0.028ms returns 0
T4438 000:473.783 JLINK_WriteReg(R6, 0x00000000)
T4438 000:473.810 - 0.026ms returns 0
T4438 000:473.839 JLINK_WriteReg(R7, 0x00000000)
T4438 000:473.865 - 0.025ms returns 0
T4438 000:473.895 JLINK_WriteReg(R8, 0x00000000)
T4438 000:473.921 - 0.026ms returns 0
T4438 000:473.950 JLINK_WriteReg(R9, 0x20000198)
T4438 000:473.976 - 0.025ms returns 0
T4438 000:474.006 JLINK_WriteReg(R10, 0x00000000)
T4438 000:474.032 - 0.026ms returns 0
T4438 000:474.062 JLINK_WriteReg(R11, 0x00000000)
T4438 000:474.089 - 0.026ms returns 0
T4438 000:474.116 JLINK_WriteReg(R12, 0x00000000)
T4438 000:474.140 - 0.023ms returns 0
T4438 000:474.166 JLINK_WriteReg(R13 (SP), 0x20001000)
T4438 000:474.192 - 0.025ms returns 0
T4438 000:474.219 JLINK_WriteReg(R14, 0x20000001)
T4438 000:474.242 - 0.023ms returns 0
T4438 000:474.276 JLINK_WriteReg(R15 (PC), 0x200000FE)
T4438 000:474.343 - 0.067ms returns 0
T4438 000:474.372 JLINK_WriteReg(XPSR, 0x01000000)
T4438 000:474.396 - 0.024ms returns 0
T4438 000:474.423 JLINK_WriteReg(MSP, 0x20001000)
T4438 000:474.447 - 0.023ms returns 0
T4438 000:474.474 JLINK_WriteReg(PSP, 0x20001000)
T4438 000:474.497 - 0.023ms returns 0
T4438 000:474.524 JLINK_WriteReg(CFBP, 0x00000000)
T4438 000:474.547 - 0.023ms returns 0
T4438 000:474.576 JLINK_SetBPEx(Addr = 0x20000000, Type = 0xFFFFFFF2)
T4438 000:474.602 - 0.027ms returns 0x00000007
T4438 000:474.630 JLINK_Go()
T4438 000:474.665   CPU_ReadMem(4 bytes @ 0xE0001000)
T4438 000:478.722 - 4.091ms 
T4438 000:478.770 JLINK_IsHalted()
T4438 000:479.474 - 0.703ms returns FALSE
T4438 000:479.517 JLINK_HasError()
T4438 000:481.564 JLINK_IsHalted()
T4438 000:482.263 - 0.698ms returns FALSE
T4438 000:482.310 JLINK_HasError()
T4438 000:483.566 JLINK_IsHalted()
T4438 000:484.293 - 0.727ms returns FALSE
T4438 000:484.340 JLINK_HasError()
T4438 000:485.566 JLINK_IsHalted()
T4438 000:486.320 - 0.753ms returns FALSE
T4438 000:486.374 JLINK_HasError()
T4438 000:487.566 JLINK_IsHalted()
T4438 000:488.345 - 0.778ms returns FALSE
T4438 000:488.398 JLINK_HasError()
T4438 000:490.565 JLINK_IsHalted()
T4438 000:491.663 - 1.096ms returns FALSE
T4438 000:491.717 JLINK_HasError()
T4438 000:493.600 JLINK_IsHalted()
T4438 000:494.468 - 0.868ms returns FALSE
T4438 000:494.546 JLINK_HasError()
T4438 000:496.457 JLINK_IsHalted()
T4438 000:497.244 - 0.785ms returns FALSE
T4438 000:497.298 JLINK_HasError()
T4438 000:499.455 JLINK_IsHalted()
T4438 000:500.294 - 0.838ms returns FALSE
T4438 000:500.347 JLINK_HasError()
T4438 000:502.468 JLINK_IsHalted()
T4438 000:503.396 - 0.927ms returns FALSE
T4438 000:503.457 JLINK_HasError()
T4438 000:508.419 JLINK_IsHalted()
T4438 000:509.357 - 0.936ms returns FALSE
T4438 000:509.441 JLINK_HasError()
T4438 000:510.703 JLINK_IsHalted()
T4438 000:514.198   CPU_ReadMem(2 bytes @ 0x20000000)
T4438 000:514.924 - 4.220ms returns TRUE
T4438 000:514.975 JLINK_ReadReg(R15 (PC))
T4438 000:515.010 - 0.034ms returns 0x20000000
T4438 000:515.046 JLINK_ClrBPEx(BPHandle = 0x00000007)
T4438 000:515.076 - 0.030ms returns 0x00
T4438 000:515.111 JLINK_ReadReg(R0)
T4438 000:515.141 - 0.029ms returns 0x00000000
T4438 000:516.229 JLINK_WriteMem(0x2000019C, 0x200 Bytes, ...)
T4438 000:516.273   Data:  1E 04 00 00 00 00 00 80 F0 B5 8B 4C 0F 09 25 46 ...
T4438 000:516.324   CPU_WriteMem(512 bytes @ 0x2000019C)
T4438 000:522.931 - 6.702ms returns 0x200
T4438 000:523.003 JLINK_HasError()
T4438 000:523.045 JLINK_WriteReg(R0, 0x00000600)
T4438 000:523.085 - 0.039ms returns 0
T4438 000:523.123 JLINK_WriteReg(R1, 0x00000200)
T4438 000:523.156 - 0.033ms returns 0
T4438 000:523.193 JLINK_WriteReg(R2, 0x2000019C)
T4438 000:523.225 - 0.032ms returns 0
T4438 000:523.262 JLINK_WriteReg(R3, 0x00000000)
T4438 000:523.294 - 0.031ms returns 0
T4438 000:523.331 JLINK_WriteReg(R4, 0x00000000)
T4438 000:523.363 - 0.032ms returns 0
T4438 000:523.400 JLINK_WriteReg(R5, 0x00000000)
T4438 000:523.432 - 0.032ms returns 0
T4438 000:523.465 JLINK_WriteReg(R6, 0x00000000)
T4438 000:523.493 - 0.028ms returns 0
T4438 000:523.526 JLINK_WriteReg(R7, 0x00000000)
T4438 000:523.554 - 0.028ms returns 0
T4438 000:523.594 JLINK_WriteReg(R8, 0x00000000)
T4438 000:523.622 - 0.028ms returns 0
T4438 000:523.656 JLINK_WriteReg(R9, 0x20000198)
T4438 000:523.685 - 0.028ms returns 0
T4438 000:523.717 JLINK_WriteReg(R10, 0x00000000)
T4438 000:523.746 - 0.029ms returns 0
T4438 000:523.779 JLINK_WriteReg(R11, 0x00000000)
T4438 000:523.808 - 0.028ms returns 0
T4438 000:523.840 JLINK_WriteReg(R12, 0x00000000)
T4438 000:523.869 - 0.028ms returns 0
T4438 000:523.902 JLINK_WriteReg(R13 (SP), 0x20001000)
T4438 000:523.932 - 0.030ms returns 0
T4438 000:523.965 JLINK_WriteReg(R14, 0x20000001)
T4438 000:523.994 - 0.029ms returns 0
T4438 000:524.026 JLINK_WriteReg(R15 (PC), 0x200000FE)
T4438 000:524.052 - 0.026ms returns 0
T4438 000:524.082 JLINK_WriteReg(XPSR, 0x01000000)
T4438 000:524.108 - 0.026ms returns 0
T4438 000:524.137 JLINK_WriteReg(MSP, 0x20001000)
T4438 000:524.163 - 0.026ms returns 0
T4438 000:524.193 JLINK_WriteReg(PSP, 0x20001000)
T4438 000:524.218 - 0.025ms returns 0
T4438 000:524.248 JLINK_WriteReg(CFBP, 0x00000000)
T4438 000:524.273 - 0.025ms returns 0
T4438 000:524.305 JLINK_SetBPEx(Addr = 0x20000000, Type = 0xFFFFFFF2)
T4438 000:524.333 - 0.029ms returns 0x00000008
T4438 000:524.363 JLINK_Go()
T4438 000:524.402   CPU_ReadMem(4 bytes @ 0xE0001000)
T4438 000:528.391 - 4.027ms 
T4438 000:528.443 JLINK_IsHalted()
T4438 000:529.144 - 0.700ms returns FALSE
T4438 000:529.206 JLINK_HasError()
T4438 000:531.394 JLINK_IsHalted()
T4438 000:532.194 - 0.799ms returns FALSE
T4438 000:532.250 JLINK_HasError()
T4438 000:534.200 JLINK_IsHalted()
T4438 000:534.979 - 0.778ms returns FALSE
T4438 000:535.033 JLINK_HasError()
T4438 000:537.194 JLINK_IsHalted()
T4438 000:537.793 - 0.598ms returns FALSE
T4438 000:537.847 JLINK_HasError()
T4438 000:539.194 JLINK_IsHalted()
T4438 000:539.811 - 0.616ms returns FALSE
T4438 000:539.864 JLINK_HasError()
T4438 000:541.194 JLINK_IsHalted()
T4438 000:541.841 - 0.646ms returns FALSE
T4438 000:541.895 JLINK_HasError()
T4438 000:543.205 JLINK_IsHalted()
T4438 000:543.929 - 0.722ms returns FALSE
T4438 000:543.990 JLINK_HasError()
T4438 000:545.231 JLINK_IsHalted()
T4438 000:545.949 - 0.717ms returns FALSE
T4438 000:546.006 JLINK_HasError()
T4438 000:547.937 JLINK_IsHalted()
T4438 000:548.739 - 0.800ms returns FALSE
T4438 000:548.796 JLINK_HasError()
T4438 000:550.758 JLINK_IsHalted()
T4438 000:551.497 - 0.738ms returns FALSE
T4438 000:551.579 JLINK_HasError()
T4438 000:553.758 JLINK_IsHalted()
T4438 000:554.549 - 0.790ms returns FALSE
T4438 000:554.604 JLINK_HasError()
T4438 000:556.748 JLINK_IsHalted()
T4438 000:557.333 - 0.584ms returns FALSE
T4438 000:557.402 JLINK_HasError()
T4438 000:558.742 JLINK_IsHalted()
T4438 000:559.389 - 0.644ms returns FALSE
T4438 000:559.486 JLINK_HasError()
T4438 000:560.770 JLINK_IsHalted()
T4438 000:564.229   CPU_ReadMem(2 bytes @ 0x20000000)
T4438 000:564.971 - 4.201ms returns TRUE
T4438 000:565.047 JLINK_ReadReg(R15 (PC))
T4438 000:565.101 - 0.052ms returns 0x20000000
T4438 000:565.154 JLINK_ClrBPEx(BPHandle = 0x00000008)
T4438 000:565.201 - 0.047ms returns 0x00
T4438 000:565.253 JLINK_ReadReg(R0)
T4438 000:565.298 - 0.044ms returns 0x00000000
T4438 000:566.815 JLINK_WriteMem(0x2000019C, 0x200 Bytes, ...)
T4438 000:566.872   Data:  A0 41 15 D3 94 18 1A 46 5A 41 0E 48 64 42 90 41 ...
T4438 000:566.947   CPU_WriteMem(512 bytes @ 0x2000019C)
T4438 000:573.492 - 6.676ms returns 0x200
T4438 000:573.560 JLINK_HasError()
T4438 000:573.608 JLINK_WriteReg(R0, 0x00000800)
T4438 000:573.652 - 0.044ms returns 0
T4438 000:573.696 JLINK_WriteReg(R1, 0x00000200)
T4438 000:573.735 - 0.038ms returns 0
T4438 000:573.790 JLINK_WriteReg(R2, 0x2000019C)
T4438 000:573.835 - 0.044ms returns 0
T4438 000:573.886 JLINK_WriteReg(R3, 0x00000000)
T4438 000:573.932 - 0.045ms returns 0
T4438 000:573.982 JLINK_WriteReg(R4, 0x00000000)
T4438 000:574.027 - 0.044ms returns 0
T4438 000:574.077 JLINK_WriteReg(R5, 0x00000000)
T4438 000:574.122 - 0.045ms returns 0
T4438 000:574.172 JLINK_WriteReg(R6, 0x00000000)
T4438 000:574.217 - 0.045ms returns 0
T4438 000:574.268 JLINK_WriteReg(R7, 0x00000000)
T4438 000:574.312 - 0.044ms returns 0
T4438 000:574.363 JLINK_WriteReg(R8, 0x00000000)
T4438 000:574.407 - 0.044ms returns 0
T4438 000:574.457 JLINK_WriteReg(R9, 0x20000198)
T4438 000:574.501 - 0.043ms returns 0
T4438 000:574.552 JLINK_WriteReg(R10, 0x00000000)
T4438 000:574.597 - 0.045ms returns 0
T4438 000:574.648 JLINK_WriteReg(R11, 0x00000000)
T4438 000:574.693 - 0.044ms returns 0
T4438 000:574.740 JLINK_WriteReg(R12, 0x00000000)
T4438 000:574.784 - 0.044ms returns 0
T4438 000:574.828 JLINK_WriteReg(R13 (SP), 0x20001000)
T4438 000:574.869 - 0.040ms returns 0
T4438 000:574.912 JLINK_WriteReg(R14, 0x20000001)
T4438 000:574.950 - 0.038ms returns 0
T4438 000:574.994 JLINK_WriteReg(R15 (PC), 0x200000FE)
T4438 000:575.033 - 0.039ms returns 0
T4438 000:575.076 JLINK_WriteReg(XPSR, 0x01000000)
T4438 000:575.115 - 0.038ms returns 0
T4438 000:575.158 JLINK_WriteReg(MSP, 0x20001000)
T4438 000:575.196 - 0.038ms returns 0
T4438 000:575.240 JLINK_WriteReg(PSP, 0x20001000)
T4438 000:575.278 - 0.038ms returns 0
T4438 000:575.322 JLINK_WriteReg(CFBP, 0x00000000)
T4438 000:575.359 - 0.037ms returns 0
T4438 000:575.405 JLINK_SetBPEx(Addr = 0x20000000, Type = 0xFFFFFFF2)
T4438 000:575.446 - 0.042ms returns 0x00000009
T4438 000:575.490 JLINK_Go()
T4438 000:575.558   CPU_ReadMem(4 bytes @ 0xE0001000)
T4438 000:579.270 - 3.778ms 
T4438 000:579.340 JLINK_IsHalted()
T4438 000:580.263 - 0.922ms returns FALSE
T4438 000:580.326 JLINK_HasError()
T4438 000:586.784 JLINK_IsHalted()
T4438 000:587.308 - 0.523ms returns FALSE
T4438 000:587.319 JLINK_HasError()
T4438 000:588.783 JLINK_IsHalted()
T4438 000:589.351 - 0.567ms returns FALSE
T4438 000:589.361 JLINK_HasError()
T4438 000:590.783 JLINK_IsHalted()
T4438 000:591.394 - 0.610ms returns FALSE
T4438 000:591.404 JLINK_HasError()
T4438 000:592.801 JLINK_IsHalted()
T4438 000:593.427 - 0.625ms returns FALSE
T4438 000:593.443 JLINK_HasError()
T4438 000:594.788 JLINK_IsHalted()
T4438 000:595.460 - 0.671ms returns FALSE
T4438 000:595.471 JLINK_HasError()
T4438 000:596.785 JLINK_IsHalted()
T4438 000:597.230 - 0.445ms returns FALSE
T4438 000:597.241 JLINK_HasError()
T4438 000:598.788 JLINK_IsHalted()
T4438 000:599.256 - 0.467ms returns FALSE
T4438 000:599.266 JLINK_HasError()
T4438 000:600.784 JLINK_IsHalted()
T4438 000:601.266 - 0.482ms returns FALSE
T4438 000:601.277 JLINK_HasError()
T4438 000:602.785 JLINK_IsHalted()
T4438 000:603.302 - 0.517ms returns FALSE
T4438 000:603.313 JLINK_HasError()
T4438 000:604.786 JLINK_IsHalted()
T4438 000:605.341 - 0.554ms returns FALSE
T4438 000:605.353 JLINK_HasError()
T4438 000:606.853 JLINK_IsHalted()
T4438 000:607.444 - 0.591ms returns FALSE
T4438 000:607.458 JLINK_HasError()
T4438 000:609.406 JLINK_IsHalted()
T4438 000:609.902 - 0.495ms returns FALSE
T4438 000:609.926 JLINK_HasError()
T4438 000:611.461 JLINK_IsHalted()
T4438 000:614.706   CPU_ReadMem(2 bytes @ 0x20000000)
T4438 000:615.255 - 3.793ms returns TRUE
T4438 000:615.278 JLINK_ReadReg(R15 (PC))
T4438 000:615.287 - 0.008ms returns 0x20000000
T4438 000:615.294 JLINK_ClrBPEx(BPHandle = 0x00000009)
T4438 000:615.301 - 0.007ms returns 0x00
T4438 000:615.309 JLINK_ReadReg(R0)
T4438 000:615.316 - 0.006ms returns 0x00000000
T4438 000:615.656 JLINK_WriteMem(0x2000019C, 0x200 Bytes, ...)
T4438 000:615.668   Data:  02 D1 0F 22 00 04 1C D0 03 0E 01 D1 00 02 08 3A ...
T4438 000:615.683   CPU_WriteMem(512 bytes @ 0x2000019C)
T4438 000:622.083 - 6.424ms returns 0x200
T4438 000:622.143 JLINK_HasError()
T4438 000:622.151 JLINK_WriteReg(R0, 0x00000A00)
T4438 000:622.158 - 0.007ms returns 0
T4438 000:622.165 JLINK_WriteReg(R1, 0x00000200)
T4438 000:622.172 - 0.006ms returns 0
T4438 000:622.179 JLINK_WriteReg(R2, 0x2000019C)
T4438 000:622.186 - 0.006ms returns 0
T4438 000:622.193 JLINK_WriteReg(R3, 0x00000000)
T4438 000:622.199 - 0.006ms returns 0
T4438 000:622.207 JLINK_WriteReg(R4, 0x00000000)
T4438 000:622.213 - 0.006ms returns 0
T4438 000:622.220 JLINK_WriteReg(R5, 0x00000000)
T4438 000:622.227 - 0.006ms returns 0
T4438 000:622.234 JLINK_WriteReg(R6, 0x00000000)
T4438 000:622.240 - 0.006ms returns 0
T4438 000:622.248 JLINK_WriteReg(R7, 0x00000000)
T4438 000:622.254 - 0.006ms returns 0
T4438 000:622.261 JLINK_WriteReg(R8, 0x00000000)
T4438 000:622.268 - 0.006ms returns 0
T4438 000:622.275 JLINK_WriteReg(R9, 0x20000198)
T4438 000:622.281 - 0.006ms returns 0
T4438 000:622.289 JLINK_WriteReg(R10, 0x00000000)
T4438 000:622.295 - 0.006ms returns 0
T4438 000:622.302 JLINK_WriteReg(R11, 0x00000000)
T4438 000:622.308 - 0.006ms returns 0
T4438 000:622.316 JLINK_WriteReg(R12, 0x00000000)
T4438 000:622.322 - 0.006ms returns 0
T4438 000:622.330 JLINK_WriteReg(R13 (SP), 0x20001000)
T4438 000:622.336 - 0.006ms returns 0
T4438 000:622.344 JLINK_WriteReg(R14, 0x20000001)
T4438 000:622.350 - 0.006ms returns 0
T4438 000:622.357 JLINK_WriteReg(R15 (PC), 0x200000FE)
T4438 000:622.364 - 0.006ms returns 0
T4438 000:622.371 JLINK_WriteReg(XPSR, 0x01000000)
T4438 000:622.377 - 0.006ms returns 0
T4438 000:622.385 JLINK_WriteReg(MSP, 0x20001000)
T4438 000:622.391 - 0.006ms returns 0
T4438 000:622.398 JLINK_WriteReg(PSP, 0x20001000)
T4438 000:622.405 - 0.006ms returns 0
T4438 000:622.412 JLINK_WriteReg(CFBP, 0x00000000)
T4438 000:622.418 - 0.006ms returns 0
T4438 000:622.426 JLINK_SetBPEx(Addr = 0x20000000, Type = 0xFFFFFFF2)
T4438 000:622.436 - 0.010ms returns 0x0000000A
T4438 000:622.445 JLINK_Go()
T4438 000:622.455   CPU_ReadMem(4 bytes @ 0xE0001000)
T4438 000:625.877 - 3.430ms 
T4438 000:625.894 JLINK_IsHalted()
T4438 000:626.426 - 0.531ms returns FALSE
T4438 000:626.437 JLINK_HasError()
T4438 000:627.633 JLINK_IsHalted()
T4438 000:628.183 - 0.550ms returns FALSE
T4438 000:628.194 JLINK_HasError()
T4438 000:630.196 JLINK_IsHalted()
T4438 000:630.697 - 0.500ms returns FALSE
T4438 000:630.721 JLINK_HasError()
T4438 000:632.187 JLINK_IsHalted()
T4438 000:632.721 - 0.534ms returns FALSE
T4438 000:632.756 JLINK_HasError()
T4438 000:634.188 JLINK_IsHalted()
T4438 000:634.746 - 0.557ms returns FALSE
T4438 000:634.775 JLINK_HasError()
T4438 000:636.200 JLINK_IsHalted()
T4438 000:636.771 - 0.570ms returns FALSE
T4438 000:636.797 JLINK_HasError()
T4438 000:638.188 JLINK_IsHalted()
T4438 000:638.821 - 0.633ms returns FALSE
T4438 000:638.846 JLINK_HasError()
T4438 000:640.265 JLINK_IsHalted()
T4438 000:640.800 - 0.534ms returns FALSE
T4438 000:640.831 JLINK_HasError()
T4438 000:642.250 JLINK_IsHalted()
T4438 000:642.901 - 0.649ms returns FALSE
T4438 000:642.954 JLINK_HasError()
T4438 000:644.256 JLINK_IsHalted()
T4438 000:644.893 - 0.638ms returns FALSE
T4438 000:644.921 JLINK_HasError()
T4438 000:646.177 JLINK_IsHalted()
T4438 000:646.637 - 0.459ms returns FALSE
T4438 000:646.656 JLINK_HasError()
T4438 000:648.198 JLINK_IsHalted()
T4438 000:648.733 - 0.536ms returns FALSE
T4438 000:648.752 JLINK_HasError()
T4438 000:650.742 JLINK_IsHalted()
T4438 000:651.235 - 0.492ms returns FALSE
T4438 000:651.263 JLINK_HasError()
T4438 000:652.924 JLINK_IsHalted()
T4438 000:653.546 - 0.621ms returns FALSE
T4438 000:653.572 JLINK_HasError()
T4438 000:654.922 JLINK_IsHalted()
T4438 000:655.568 - 0.646ms returns FALSE
T4438 000:655.594 JLINK_HasError()
T4438 000:656.922 JLINK_IsHalted()
T4438 000:657.594 - 0.670ms returns FALSE
T4438 000:657.625 JLINK_HasError()
T4438 000:658.921 JLINK_IsHalted()
T4438 000:662.134   CPU_ReadMem(2 bytes @ 0x20000000)
T4438 000:662.651 - 3.729ms returns TRUE
T4438 000:662.696 JLINK_ReadReg(R15 (PC))
T4438 000:662.725 - 0.028ms returns 0x20000000
T4438 000:662.757 JLINK_ClrBPEx(BPHandle = 0x0000000A)
T4438 000:662.781 - 0.024ms returns 0x00
T4438 000:662.814 JLINK_ReadReg(R0)
T4438 000:662.838 - 0.024ms returns 0x00000000
T4438 000:663.721 JLINK_WriteMem(0x2000019C, 0x200 Bytes, ...)
T4438 000:663.755   Data:  00 88 10 BD 0D 23 1B 04 1A 42 04 D0 11 46 00 20 ...
T4438 000:663.793   CPU_WriteMem(512 bytes @ 0x2000019C)
T4438 000:670.260 - 6.539ms returns 0x200
T4438 000:670.309 JLINK_HasError()
T4438 000:670.343 JLINK_WriteReg(R0, 0x00000C00)
T4438 000:670.375 - 0.031ms returns 0
T4438 000:670.406 JLINK_WriteReg(R1, 0x00000200)
T4438 000:670.432 - 0.026ms returns 0
T4438 000:670.463 JLINK_WriteReg(R2, 0x2000019C)
T4438 000:670.489 - 0.026ms returns 0
T4438 000:670.519 JLINK_WriteReg(R3, 0x00000000)
T4438 000:670.546 - 0.026ms returns 0
T4438 000:670.576 JLINK_WriteReg(R4, 0x00000000)
T4438 000:670.603 - 0.026ms returns 0
T4438 000:670.634 JLINK_WriteReg(R5, 0x00000000)
T4438 000:670.660 - 0.026ms returns 0
T4438 000:670.690 JLINK_WriteReg(R6, 0x00000000)
T4438 000:670.716 - 0.026ms returns 0
T4438 000:670.747 JLINK_WriteReg(R7, 0x00000000)
T4438 000:670.774 - 0.027ms returns 0
T4438 000:670.804 JLINK_WriteReg(R8, 0x00000000)
T4438 000:670.831 - 0.027ms returns 0
T4438 000:670.861 JLINK_WriteReg(R9, 0x20000198)
T4438 000:670.888 - 0.026ms returns 0
T4438 000:670.915 JLINK_WriteReg(R10, 0x00000000)
T4438 000:670.939 - 0.024ms returns 0
T4438 000:670.967 JLINK_WriteReg(R11, 0x00000000)
T4438 000:670.991 - 0.024ms returns 0
T4438 000:671.019 JLINK_WriteReg(R12, 0x00000000)
T4438 000:671.043 - 0.024ms returns 0
T4438 000:671.071 JLINK_WriteReg(R13 (SP), 0x20001000)
T4438 000:671.096 - 0.026ms returns 0
T4438 000:671.124 JLINK_WriteReg(R14, 0x20000001)
T4438 000:671.155 - 0.024ms returns 0
T4438 000:671.183 JLINK_WriteReg(R15 (PC), 0x200000FE)
T4438 000:671.225 - 0.041ms returns 0
T4438 000:671.263 JLINK_WriteReg(XPSR, 0x01000000)
T4438 000:671.292 - 0.029ms returns 0
T4438 000:671.321 JLINK_WriteReg(MSP, 0x20001000)
T4438 000:671.345 - 0.024ms returns 0
T4438 000:671.373 JLINK_WriteReg(PSP, 0x20001000)
T4438 000:671.397 - 0.024ms returns 0
T4438 000:671.425 JLINK_WriteReg(CFBP, 0x00000000)
T4438 000:671.449 - 0.024ms returns 0
T4438 000:671.479 JLINK_SetBPEx(Addr = 0x20000000, Type = 0xFFFFFFF2)
T4438 000:671.506 - 0.028ms returns 0x0000000B
T4438 000:671.534 JLINK_Go()
T4438 000:671.570   CPU_ReadMem(4 bytes @ 0xE0001000)
T4438 000:675.243 - 3.707ms 
T4438 000:675.285 JLINK_IsHalted()
T4438 000:675.983 - 0.698ms returns FALSE
T4438 000:676.024 JLINK_HasError()
T4438 000:680.171 JLINK_IsHalted()
T4438 000:680.827 - 0.656ms returns FALSE
T4438 000:680.860 JLINK_HasError()
T4438 000:682.166 JLINK_IsHalted()
T4438 000:682.924 - 0.757ms returns FALSE
T4438 000:682.958 JLINK_HasError()
T4438 000:684.211 JLINK_IsHalted()
T4438 000:684.922 - 0.711ms returns FALSE
T4438 000:684.959 JLINK_HasError()
T4438 000:686.165 JLINK_IsHalted()
T4438 000:686.920 - 0.754ms returns FALSE
T4438 000:686.960 JLINK_HasError()
T4438 000:688.303 JLINK_IsHalted()
T4438 000:688.979 - 0.675ms returns FALSE
T4438 000:689.020 JLINK_HasError()
T4438 000:690.987 JLINK_IsHalted()
T4438 000:691.747 - 0.760ms returns FALSE
T4438 000:691.791 JLINK_HasError()
T4438 000:693.209 JLINK_IsHalted()
T4438 000:694.077 - 0.867ms returns FALSE
T4438 000:694.146 JLINK_HasError()
T4438 000:696.215 JLINK_IsHalted()
T4438 000:696.815 - 0.600ms returns FALSE
T4438 000:696.855 JLINK_HasError()
T4438 000:698.212 JLINK_IsHalted()
T4438 000:698.842 - 0.629ms returns FALSE
T4438 000:698.886 JLINK_HasError()
T4438 000:700.212 JLINK_IsHalted()
T4438 000:700.921 - 0.709ms returns FALSE
T4438 000:700.970 JLINK_HasError()
